Circuit: * Z:\home\lab\projects\ltspice_exos\Draft1.asc

Direct Newton iteration failed to find .op point.  (Use ".option noopiter" to skip.)
Starting Gmin stepping
Gmin = 10
Gmin = 1.07374
Gmin = 0.115292
Gmin = 0.0123794
Gmin = 0.00132923
Gmin = 0.000142725
Gmin = 1.5325e-005
Gmin = 1.6455e-006
Gmin = 1.76685e-007
Gmin = 1.89714e-008
Gmin = 2.03704e-009
Gmin = 2.18725e-010
Gmin = 2.34854e-011
Gmin = 2.52173e-012
Gmin = 2.70769e-013
Gmin = 0
Gmin stepping succeeded in finding the operating point.

Semiconductor Device Operating Points:
                        --- Bipolar Transistors ---
Name:       q1
Model:      pnp
Ib:      -3.26e-02
Ic:       3.26e-02
Vbe:     -8.64e-01
Vbc:     -8.64e-01
Vce:      2.65e-04
BetaDC:  -1.00e+00
Gm:      -1.27e-02
Rpi:      8.09e+01
Rx:       0.00e+00
Ro:       8.01e-01
Cbe:      0.00e+00
Cbc:      0.00e+00
Cjs:      0.00e+00
BetaAC:  -1.03e+00
Cbx:      0.00e+00
Ft:       0.00e+00



Date: Fri Dec 25 22:39:59 2015
Total elapsed time: 1.114 seconds.

tnom = 27
temp = 27
method = trap
totiter = 410
traniter = 0
tranpoints = 0
accept = 0
rejected = 0
matrix size = 10
fillins = 0
solver = Normal
Matrix Compiler1: 498 bytes object code size
Matrix Compiler2: off  [0.6]/0.7/0.7


